Time [s], Analyzer Name, Decoded Protocol Result
1.203777500000000,I2C,Setup Read to ['255' (0xFF)] + NAK
1.203890250000000,I2C,Setup Write to ['160' (0xA0)] + ACK
1.203972125000000,I2C,'0' (0x00) + ACK
1.204060125000000,I2C,Setup Read to ['161' (0xA1)] + ACK
1.204140500000000,I2C,'8' (0x08) + ACK
1.204207750000000,I2C,'22' (0x16) + NAK
1.204297875000000,I2C,Setup Write to ['160' (0xA0)] + ACK
1.204379875000000,I2C,'2' (0x02) + ACK
1.204467750000000,I2C,Setup Read to ['161' (0xA1)] + ACK
1.204548125000000,I2C,'0' (0x00) + ACK
1.204615500000000,I2C,'233' (0xE9) + NAK
1.204705250000000,I2C,Setup Write to ['160' (0xA0)] + ACK
1.204787125000000,I2C,'0' (0x00) + ACK
1.204875125000000,I2C,Setup Read to ['161' (0xA1)] + ACK
1.204955500000000,I2C,'8' (0x08) + ACK
1.205022750000000,I2C,'22' (0x16) + ACK
1.205090000000000,I2C,'0' (0x00) + ACK
1.205157375000000,I2C,'233' (0xE9) + ACK
1.205224625000000,I2C,'255' (0xFF) + ACK
1.205291875000000,I2C,'255' (0xFF) + ACK
1.205359125000000,I2C,'255' (0xFF) + ACK
1.205426500000000,I2C,'255' (0xFF) + ACK
1.205493750000000,I2C,'3' (0x03) + ACK
1.205561000000000,I2C,'255' (0xFF) + ACK
1.205628375000000,I2C,'1' (0x01) + ACK
1.205695625000000,I2C,'2' (0x02) + ACK
1.205762875000000,I2C,'1' (0x01) + ACK
1.205830250000000,I2C,'3' (0x03) + ACK
1.205897500000000,I2C,'0' (0x00) + ACK
1.205964750000000,I2C,'1' (0x01) + ACK
1.206032125000000,I2C,\n (0x0A) + ACK
1.206099375000000,I2C,U (0x55) + ACK
1.206166625000000,I2C,S (0x53) + ACK
1.206234000000000,I2C,B (0x42) + ACK
1.206301250000000,I2C,' ' (0x20) + ACK
1.206368500000000,I2C,V (0x56) + ACK
1.206435875000000,I2C,i (0x69) + ACK
1.206503125000000,I2C,d (0x64) + ACK
1.206570375000000,I2C,e (0x65) + ACK
1.206637750000000,I2C,o (0x6F) + ACK
1.206705000000000,I2C,'255' (0xFF) + ACK
1.206772250000000,I2C,'255' (0xFF) + ACK
1.206839500000000,I2C,'255' (0xFF) + ACK
1.206906875000000,I2C,'255' (0xFF) + ACK
1.206974125000000,I2C,'255' (0xFF) + ACK
1.207041375000000,I2C,'255' (0xFF) + ACK
1.207108750000000,I2C,\n (0x0A) + ACK
1.207176000000000,I2C,U (0x55) + ACK
1.207243250000000,I2C,S (0x53) + ACK
1.207310625000000,I2C,B (0x42) + ACK
1.207377875000000,I2C,' ' (0x20) + ACK
1.207445125000000,I2C,A (0x41) + ACK
1.207512500000000,I2C,u (0x75) + ACK
1.207579750000000,I2C,d (0x64) + ACK
1.207647000000000,I2C,i (0x69) + ACK
1.207714375000000,I2C,o (0x6F) + ACK
1.207781625000000,I2C,'255' (0xFF) + ACK
1.207848875000000,I2C,'255' (0xFF) + ACK
1.207916125000000,I2C,'255' (0xFF) + ACK
1.207983500000000,I2C,'255' (0xFF) + ACK
1.208050750000000,I2C,'255' (0xFF) + ACK
1.208118000000000,I2C,'255' (0xFF) + ACK
1.208185375000000,I2C,'2' (0x02) + ACK
1.208252625000000,I2C,'200' (0xC8) + ACK
1.208319875000000,I2C,; (0x3B) + ACK
1.208387250000000,I2C,x (0x78) + ACK
1.208454500000000,I2C,'255' (0xFF) + ACK
1.208521750000000,I2C,'228' (0xE4) + ACK
1.208589125000000,I2C,'246' (0xF6) + ACK
1.208656375000000,I2C,'216' (0xD8) + ACK
1.208723625000000,I2C,'253' (0xFD) + ACK
1.208791000000000,I2C,u (0x75) + ACK
1.208858250000000,I2C,'129' (0x81) + ACK
1.208925500000000,I2C,U (0x55) + ACK
1.208992750000000,I2C,'2' (0x02) + ACK
1.209060125000000,I2C,'200' (0xC8) + ACK
1.209127375000000,I2C,'231' (0xE7) + ACK
1.209194625000000,I2C,'255' (0xFF) + ACK
1.209262000000000,I2C,'229' (0xE5) + ACK
1.209329250000000,I2C,'11' (0x0B) + ACK
1.209396500000000,I2C,0 (0x30) + ACK
1.209463875000000,I2C,'229' (0xE5) + ACK
1.209531125000000,I2C,'18' (0x12) + ACK
1.209598375000000,I2C,'175' (0xAF) + ACK
1.209665750000000,I2C,'16' (0x10) + ACK
1.209733000000000,I2C,'191' (0xBF) + ACK
1.209800250000000,I2C,'2' (0x02) + ACK
1.209867625000000,I2C,\r (0x0D) + ACK
1.209934875000000,I2C,'144' (0x90) + ACK
1.210002125000000,I2C,'199' (0xC7) + ACK
1.210069500000000,I2C,'218' (0xDA) + ACK
1.210136750000000,I2C,'224' (0xE0) + ACK
1.210204000000000,I2C,' ' (0x20) + ACK
1.210271250000000,I2C,'224' (0xE0) + ACK
1.210338625000000,I2C,'6' (0x06) + ACK
1.210405875000000,I2C,u (0x75) + ACK
1.210473125000000,I2C,'15' (0x0F) + ACK
1.210540500000000,I2C,'0' (0x00) + ACK
1.210607750000000,I2C,u (0x75) + ACK
1.210675000000000,I2C,'16' (0x10) + ACK
1.210742375000000,I2C,'4' (0x04) + ACK
1.210809625000000,I2C,'229' (0xE5) + ACK
1.210876875000000,I2C,'11' (0x0B) + ACK
1.210944250000000,I2C,' ' (0x20) + ACK
1.211011500000000,I2C,'231' (0xE7) + ACK
1.211078750000000,I2C,'11' (0x0B) + ACK
1.211146125000000,I2C,'229' (0xE5) + ACK
1.211213375000000,I2C,'18' (0x12) + ACK
1.211280625000000,I2C,E (0x45) + ACK
1.211348000000000,I2C,'17' (0x11) + ACK
1.211415250000000,I2C,` (0x60) + ACK
1.211482500000000,I2C,'5' (0x05) + ACK
1.211549750000000,I2C,'210' (0xD2) + ACK
1.211617125000000,I2C,'22' (0x16) + ACK
1.211684375000000,I2C,'210' (0xD2) + ACK
1.211751625000000,I2C,'134' (0x86) + ACK
1.211819000000000,I2C," (0x22) + ACK
1.211886250000000,I2C,'18' (0x12) + ACK
1.211953500000000,I2C,'200' (0xC8) + ACK
1.212020875000000,I2C,'227' (0xE3) + ACK
1.212088125000000,I2C," (0x22) + ACK
1.212155375000000,I2C,'239' (0xEF) + ACK
1.212222750000000,I2C,'20' (0x14) + ACK
1.212290000000000,I2C,` (0x60) + ACK
1.212357250000000,I2C,'27' (0x1B) + ACK
1.212424625000000,I2C,'20' (0x14) + ACK
1.212491875000000,I2C,` (0x60) + ACK
1.212559125000000,I2C,e (0x65) + ACK
1.212626500000000,I2C,$ (0x24) + ACK
1.212693750000000,I2C,'253' (0xFD) + ACK
1.212761000000000,I2C,` (0x60) + ACK
1.212828250000000,I2C,^ (0x5E) + ACK
1.212895625000000,I2C,$ (0x24) + ACK
1.212962875000000,I2C,'254' (0xFE) + ACK
1.213030125000000,I2C,` (0x60) + ACK
1.213097500000000,I2C,* (0x2A) + ACK
1.213164750000000,I2C,$ (0x24) + ACK
1.213232000000000,I2C,'250' (0xFA) + ACK
1.213299375000000,I2C,` (0x60) + ACK
1.213366625000000,I2C,& (0x26) + ACK
1.213433875000000,I2C,$ (0x24) + ACK
1.213501250000000,I2C,\r (0x0D) + ACK
1.213568500000000,I2C,p (0x70) + ACK
1.213635750000000,I2C,u (0x75) + ACK
1.213703125000000,I2C,'144' (0x90) + ACK
1.213770375000000,I2C,'252' (0xFC) + ACK
1.213837625000000,I2C,'11' (0x0B) + ACK
1.213904875000000,I2C,'224' (0xE0) + ACK
1.213972250000000,I2C,T (0x54) + ACK
1.214039500000000,I2C,'239' (0xEF) + ACK
1.214106750000000,I2C,'240' (0xF0) + ACK
1.214174125000000,I2C," (0x22) + ACK
1.214241375000000,I2C,'144' (0x90) + ACK
1.214308625000000,I2C,'252' (0xFC) + ACK
1.214376000000000,I2C,'8' (0x08) + ACK
1.214443250000000,I2C,'224' (0xE0) + ACK
1.214510500000000,I2C,T (0x54) + ACK
1.214577875000000,I2C,'253' (0xFD) + ACK
1.214645125000000,I2C,'240' (0xF0) + ACK
1.214712375000000,I2C,'224' (0xE0) + ACK
1.214779750000000,I2C,D (0x44) + ACK
1.214847000000000,I2C,'1' (0x01) + ACK
1.214914250000000,I2C,'240' (0xF0) + ACK
1.214981625000000,I2C,C (0x43) + ACK
1.215048875000000,I2C,'157' (0x9D) + ACK
1.215116125000000,I2C,'7' (0x07) + ACK
1.215183375000000,I2C,'229' (0xE5) + ACK
1.215250750000000,I2C,C (0x43) + ACK
1.215318000000000,I2C,'180' (0xB4) + ACK
1.215385250000000,I2C,'1' (0x01) + ACK
1.215452625000000,I2C,'7' (0x07) + ACK
1.215519875000000,I2C,'144' (0x90) + ACK
1.215587125000000,I2C,'252' (0xFC) + ACK
1.215654500000000,I2C,D (0x44) + ACK
1.215721750000000,I2C,'224' (0xE0) + ACK
1.215789000000000,I2C,D (0x44) + ACK
1.215856375000000,I2C,'16' (0x10) + ACK
1.215923625000000,I2C,'240' (0xF0) + ACK
1.215990875000000,I2C,'229' (0xE5) + ACK
1.216058250000000,I2C,D (0x44) + ACK
1.216125500000000,I2C,p (0x70) + ACK
1.216192750000000,I2C,'22' (0x16) + ACK
1.216260125000000,I2C,'144' (0x90) + ACK
1.216327375000000,I2C,'248' (0xF8) + ACK
1.216394625000000,I2C,'11' (0x0B) + ACK
1.216461875000000,I2C,'224' (0xE0) + ACK
1.216529250000000,I2C,T (0x54) + ACK
1.216596500000000,I2C,'239' (0xEF) + ACK
1.216663750000000,I2C,'240' (0xF0) + ACK
1.216731125000000,I2C,'144' (0x90) + ACK
1.216798375000000,I2C,'248' (0xF8) + ACK
1.216865625000000,I2C,'4' (0x04) + ACK
1.216933000000000,I2C,'224' (0xE0) + ACK
1.217000250000000,I2C,D (0x44) + ACK
1.217067500000000,I2C,'16' (0x10) + ACK
1.217134875000000,I2C,'240' (0xF0) + ACK
1.217202125000000,I2C,'144' (0x90) + ACK
1.217269375000000,I2C,'248' (0xF8) + ACK
1.217336750000000,I2C,\t (0x09) + ACK
1.217404000000000,I2C,'224' (0xE0) + ACK
1.217471250000000,I2C,D (0x44) + ACK
1.217538625000000,I2C,'8' (0x08) + ACK
1.217605875000000,I2C,'240' (0xF0) + ACK
1.217673125000000,I2C," (0x22) + ACK
1.217740375000000,I2C,'144' (0x90) + ACK
1.217807750000000,I2C,'248' (0xF8) + ACK
1.217875000000000,I2C,G (0x47) + ACK
1.217942250000000,I2C,'224' (0xE0) + ACK
1.218009625000000,I2C,D (0x44) + ACK
1.218076875000000,I2C,'7' (0x07) + ACK
1.218144125000000,I2C,'240' (0xF0) + ACK
1.218211500000000,I2C,'144' (0x90) + ACK
1.218278750000000,I2C,'248' (0xF8) + ACK
1.218346000000000,I2C,'4' (0x04) + ACK
1.218413375000000,I2C,'224' (0xE0) + ACK
1.218480625000000,I2C,D (0x44) + ACK
1.218547875000000,I2C,0 (0x30) + ACK
1.218615250000000,I2C,'240' (0xF0) + ACK
1.218682500000000,I2C,'144' (0x90) + ACK
1.218749750000000,I2C,'248' (0xF8) + ACK
1.218817000000000,I2C,\t (0x09) + ACK
1.218884375000000,I2C,'224' (0xE0) + ACK
1.218951625000000,I2C,D (0x44) + ACK
1.219018875000000,I2C,'24' (0x18) + ACK
1.219086250000000,I2C,'240' (0xF0) + ACK
1.219153500000000,I2C," (0x22) + ACK
1.219220750000000,I2C,'2' (0x02) + ACK
1.219288125000000,I2C,'200' (0xC8) + ACK
1.219355375000000,I2C,'200' (0xC8) + ACK
1.219422625000000,I2C,'229' (0xE5) + ACK
1.219490000000000,I2C,@ (0x40) + ACK
1.219557250000000,I2C,'195' (0xC3) + ACK
1.219624500000000,I2C,'148' (0x94) + ACK
1.219691875000000,I2C,'7' (0x07) + ACK
1.219759125000000,I2C,P (0x50) + ACK
1.219826375000000,I2C,\r (0x0D) + ACK
1.219893750000000,I2C,'144' (0x90) + ACK
1.219961000000000,I2C,'251' (0xFB) + ACK
1.220028250000000,I2C,O (0x4F) + ACK
1.220095500000000,I2C,'224' (0xE0) + ACK
1.220162875000000,I2C,0 (0x30) + ACK
1.220230125000000,I2C,'228' (0xE4) + ACK
1.220297375000000,I2C,'6' (0x06) + ACK
1.220364750000000,I2C,0 (0x30) + ACK
1.220432000000000,I2C,'5' (0x05) + ACK
1.220499250000000,I2C,'3' (0x03) + ACK
1.220566625000000,I2C,'194' (0xC2) + ACK
1.220633875000000,I2C,'5' (0x05) + ACK
1.220701125000000,I2C," (0x22) + ACK
1.220768500000000,I2C,'144' (0x90) + ACK
1.220835750000000,I2C,'251' (0xFB) + ACK
1.220903000000000,I2C,O (0x4F) + ACK
1.220970375000000,I2C,'224' (0xE0) + ACK
1.221037625000000,I2C,' ' (0x20) + ACK
1.221104875000000,I2C,'228' (0xE4) + ACK
1.221172250000000,I2C,'5' (0x05) + ACK
1.221239500000000,I2C,' ' (0x20) + ACK
1.221306750000000,I2C,'5' (0x05) + ACK
1.221374000000000,I2C,'2' (0x02) + ACK
1.221441375000000,I2C,'210' (0xD2) + ACK
1.221508625000000,I2C,'5' (0x05) + ACK
1.221575875000000,I2C," (0x22) + ACK
1.221643250000000,I2C,'18' (0x12) + ACK
1.221710500000000,I2C,'200' (0xC8) + ACK
1.221777750000000,I2C,'223' (0xDF) + ACK
1.221845125000000,I2C,'144' (0x90) + ACK
1.221912375000000,I2C,'248' (0xF8) + ACK
1.221979625000000,I2C,'8' (0x08) + ACK
1.222047000000000,I2C,'224' (0xE0) + ACK
1.222114250000000,I2C,T (0x54) + ACK
1.222181500000000,I2C,'17' (0x11) + ACK
1.222248875000000,I2C,'240' (0xF0) + ACK
1.222316125000000,I2C,'144' (0x90) + ACK
1.222383375000000,I2C,'249' (0xF9) + ACK
1.222450625000000,I2C,'160' (0xA0) + ACK
1.222518000000000,I2C,t (0x74) + ACK
1.222585250000000,I2C,'1' (0x01) + ACK
1.222652500000000,I2C,'240' (0xF0) + ACK
1.222719875000000,I2C,'2' (0x02) + ACK
1.222787125000000,I2C,'200' (0xC8) + ACK
1.222854375000000,I2C,'219' (0xDB) + ACK
1.222921750000000,I2C,'18' (0x12) + ACK
1.222989000000000,I2C,` (0x60) + ACK
1.223056250000000,I2C,'135' (0x87) + ACK
1.223123625000000,I2C," (0x22) + ACK
1.223190875000000,I2C,'18' (0x12) + ACK
1.223258125000000,I2C,V (0x56) + ACK
1.223325500000000,I2C,Y (0x59) + ACK
1.223392750000000,I2C," (0x22) + ACK
1.223460000000000,I2C,'18' (0x12) + ACK
1.223527375000000,I2C,D (0x44) + ACK
1.223594625000000,I2C,'186' (0xBA) + ACK
1.223661875000000,I2C," (0x22) + ACK
1.223729125000000,I2C,'128' (0x80) + ACK
1.223796500000000,I2C,'254' (0xFE) + ACK
1.223863750000000,I2C,'23' (0x17) + ACK
1.223931000000000,I2C,'237' (0xED) + ACK
1.223998375000000,I2C,l (0x6C) + ACK
1.224065625000000,I2C,'234' (0xEA) + NAK
